! AWR Design Environment (5953) Thu Nov 01 17:04:51 2012
! Ports: 2, Freqs: 51
# GHz S MA R 10
!-----------------------------------------------------------------------------
!Freq         MagS11       AngS11       MagS21       AngS21       MagS12       AngS12       MagS22       AngS22
 0.1          0.9999      -0.25092      2.2895       179.77       0.00073929   89.814       0.86355     -0.14806     
 1.1          0.99957     -2.7595       2.2886       177.43       0.0081285    88.087       0.86327     -1.6282      
 2.1          0.9987      -5.2654       2.2861       175.1        0.0155       86.353       0.86253     -3.1061      
 3.1          0.9973      -7.7662       2.2821       172.78       0.022836     84.622       0.86133     -4.5799      
 4.1          0.99536     -10.259       2.2767       170.46       0.030123     82.899       0.85969     -6.0474      
 5.1          0.99292     -12.743       2.2697       168.15       0.037343     81.184       0.85761     -7.5069      
 6.1          0.98997     -15.214       2.2614       165.85       0.044483     79.48        0.85511     -8.9565      
 7.1          0.98655     -17.67        2.2517       163.57       0.051529     77.79        0.8522      -10.394      
 8.1          0.98268     -20.11        2.2407       161.3        0.058467     76.114       0.84891     -11.819      
 9.1          0.97837     -22.532       2.2285       159.04       0.065286     74.454       0.84525     -13.229      
 10.1         0.97367     -24.933       2.2151       156.81       0.071975     72.813       0.84125     -14.623      
 11.1         0.96858     -27.313       2.2006       154.6        0.078524     71.191       0.83693     -15.999      
 12.1         0.96315     -29.669       2.1851       152.4        0.084925     69.591       0.83232     -17.357      
 13.1         0.95741     -32           2.1687       150.23       0.091169     68.012       0.82745     -18.695      
 14.1         0.95138     -34.305       2.1514       148.09       0.097252     66.457       0.82233     -20.012      
 15.1         0.94509     -36.582       2.1334       145.97       0.10317      64.926       0.817       -21.309      
 16.1         0.93858     -38.831       2.1146       143.87       0.10891      63.419       0.81148     -22.583      
 17.1         0.93188     -41.052       2.0953       141.81       0.11448      61.939       0.8058      -23.836      
 18.1         0.92501     -43.242       2.0754       139.76       0.11988      60.484       0.79999     -25.065      
 19.1         0.918       -45.402       2.0551       137.75       0.1251       59.056       0.79405     -26.272      
 20.1         0.91088     -47.531       2.0344       135.77       0.13014      57.655       0.78803     -27.455      
 21.1         0.90367     -49.629       2.0134       133.81       0.135        56.281       0.78194     -28.616      
 22.1         0.8964      -51.695       1.9921       131.88       0.13969      54.933       0.7758      -29.754      
 23.1         0.88909     -53.73        1.9706       129.98       0.14421      53.613       0.76963     -30.868      
 24.1         0.88176     -55.734       1.949        128.11       0.14856      52.32        0.76345     -31.96       
 25.1         0.87443     -57.705       1.9273       126.26       0.15274      51.053       0.75728     -33.03       
 26.1         0.86712     -59.646       1.9056       124.44       0.15676      49.813       0.75112     -34.078      
 27.1         0.85984     -61.555       1.8839       122.65       0.16061      48.6         0.745       -35.104      
 28.1         0.85261     -63.433       1.8623       120.89       0.16431      47.412       0.73893     -36.109      
 29.1         0.84544     -65.28        1.8407       119.16       0.16786      46.25        0.73292     -37.094      
 30.1         0.83835     -67.097       1.8193       117.45       0.17126      45.113       0.72697     -38.058      
 31.1         0.83134     -68.883       1.7981       115.77       0.17451      44           0.72111     -39.003      
 32.1         0.82442     -70.64        1.777        114.11       0.17763      42.912       0.71533     -39.929      
 33.1         0.81761     -72.368       1.7561       112.48       0.18061      41.847       0.70964     -40.836      
 34.1         0.8109      -74.067       1.7355       110.88       0.18346      40.806       0.70406     -41.725      
 35.1         0.80431     -75.738       1.7151       109.29       0.18619      39.787       0.69858     -42.598      
 36.1         0.79784     -77.38        1.695        107.74       0.18879      38.79        0.6932      -43.453      
 37.1         0.7915      -78.996       1.6751       106.2        0.19128      37.815       0.68794     -44.293      
 38.1         0.78528     -80.585       1.6556       104.69       0.19366      36.861       0.6828      -45.117      
 39.1         0.77919     -82.147       1.6363       103.2        0.19593      35.927       0.67777     -45.926      
 40.1         0.77324     -83.684       1.6174       101.73       0.19809      35.012       0.67287     -46.721      
 41.1         0.76742     -85.196       1.5987       100.29       0.20016      34.117       0.66808     -47.502      
 42.1         0.76173     -86.683       1.5804       98.86        0.20213      33.241       0.66342     -48.27       
 43.1         0.75618     -88.145       1.5624       97.455       0.204        32.383       0.65888     -49.026      
 44.1         0.75077     -89.584       1.5447       96.068       0.20579      31.543       0.65446     -49.77       
 45.1         0.74549     -91           1.5273       94.701       0.20749      30.72        0.65016     -50.502      
 46.1         0.74035     -92.393       1.5103       93.353       0.20911      29.914       0.64599     -51.223      
 47.1         0.73534     -93.764       1.4935       92.023       0.21066      29.124       0.64194     -51.933      
 48.1         0.73046     -95.114       1.4771       90.71        0.21213      28.349       0.638       -52.634      
 49.1         0.72571     -96.442       1.4611       89.415       0.21352      27.59        0.63419     -53.325      
 50           0.72155     -97.62        1.4468       88.264       0.21472      26.919       0.63085     -53.939      

!Noise Parameters
!Freq  NFmin(dB)  Mag(GammaOpt)  Ang(GammaOpt)(deg)  rn(normalized by ref. impedance)
 0.1          0.0044093    0.99862      0.14906      0.69921     
 1.1          0.046256     0.98493      1.6397       0.69913     
 2.1          0.087982     0.97143      3.1303       0.69891     
 3.1          0.12958      0.95813      4.6209       0.69855     
 4.1          0.17103      0.94503      6.1114       0.69806     
 5.1          0.21234      0.93213      7.6019       0.69743     
 6.1          0.25351      0.91944      9.0922       0.69667     
 7.1          0.29452      0.90696      10.582       0.69577     
 8.1          0.33537      0.89469      12.073       0.69473     
 9.1          0.37606      0.88262      13.562       0.69357     
 10.1         0.41657      0.87077      15.052       0.69227     
 11.1         0.45692      0.85914      16.542       0.69084     
 12.1         0.49708      0.84771      18.031       0.68927     
 13.1         0.53706      0.83651      19.52        0.68759     
 14.1         0.57686      0.82551      21.008       0.68577     
 15.1         0.61647      0.81474      22.496       0.68383     
 16.1         0.65587      0.80417      23.984       0.68176     
 17.1         0.69508      0.79383      25.471       0.67957     
 18.1         0.73409      0.7837       26.957       0.67726     
 19.1         0.77289      0.77378      28.443       0.67484     
 20.1         0.81148      0.76408      29.928       0.67229     
 21.1         0.84986      0.75458      31.412       0.66964     
 22.1         0.88802      0.74531      32.895       0.66687     
 23.1         0.92596      0.73624      34.377       0.66399     
 24.1         0.96368      0.72738      35.858       0.661       
 25.1         1.0012       0.71873      37.338       0.6579      
 26.1         1.0384       0.71028      38.816       0.65471     
 27.1         1.0755       0.70204      40.293       0.65141     
 28.1         1.1123       0.694        41.768       0.64802     
 29.1         1.1489       0.68617      43.241       0.64453     
 30.1         1.1852       0.67853      44.713       0.64095     
 31.1         1.2213       0.67109      46.182       0.63727     
 32.1         1.2572       0.66385      47.649       0.63352     
 33.1         1.2928       0.6568       49.114       0.62967     
 34.1         1.3282       0.64994      50.576       0.62575     
 35.1         1.3633       0.64327      52.036       0.62174     
 36.1         1.3982       0.63678      53.493       0.61766     
 37.1         1.4329       0.63048      54.946       0.61351     
 38.1         1.4673       0.62436      56.397       0.60928     
 39.1         1.5014       0.61842      57.843       0.60499     
 40.1         1.5354       0.61265      59.287       0.60064     
 41.1         1.569        0.60706      60.726       0.59622     
 42.1         1.6025       0.60163      62.162       0.59174     
 43.1         1.6357       0.59638      63.593       0.58721     
 44.1         1.6686       0.59129      65.02        0.58262     
 45.1         1.7013       0.58637      66.442       0.57798     
 46.1         1.7338       0.5816       67.859       0.5733      
 47.1         1.766        0.57699      69.272       0.56857     
 48.1         1.7979       0.57254      70.679       0.5638      
 49.1         1.8297       0.56824      72.08        0.55899     
 50           1.858        0.56449      73.337       0.55463     
